01 03 9E 98 00 08 EA 0B 
01 10 9E 35 00 12 24 00 02 00 00 13 88 00 00 00 00 07 D0 00 00 00 00 00 01 00 00 00 01 00 01 13 88 00 00 00 00 13 88 00 00 00 00 36 90 
01 10 9E 35 00 12 24 00 02 00 00 13 88 00 00 00 00 07 D0 00 00 00 00 00 01 00 00 00 01 00 01 13 88 00 00 00 00 13 88 00 00 00 00 36 90 
01 06 9E 34 00 61 26 04 
01 06 9E 34 00 61 26 04 
01 03 9C 48 00 02 6A 4D 
01 03 9C 48 00 02 6A 4D 
01 03 9E 98 00 08 EA 0B 
01 03 9E 98 00 08 EA 0B 
01 06 9E 34 00 03 A7 ED 
01 06 9E 34 00 03 A7 ED 
01 03 9C 48 00 02 6A 4D 
01 03 9C 48 00 02 6A 4D 
01 03 9E 98 00 08 EA 0B 
01 03 9E 98 00 08 EA 0B 
01 10 9E 35 00 12 24 00 01 00 01 13 88 00 00 00 00 07 D0 00 00 00 00 00 01 00 00 00 02 00 00 13 88 00 00 00 00 07 D0 00 00 00 00 4F 09 
01 10 9E 35 00 12 24 00 01 00 01 13 88 00 00 00 00 07 D0 00 00 00 00 00 01 00 00 00 02 00 00 13 88 00 00 00 00 07 D0 00 00 00 00 4F 09 
01 06 9E 34 00 64 E6 07 
01 06 9E 34 00 64 E6 07 
01 03 9C 48 00 02 6A 4D



01 03 9E 9F 00 01 9B CC 
01 03 9C 48 00 02 6A 4D 
01 03 9C 48 00 02 6A 4D 
01 03 9E 9F 00 01 9B CC 
01 03 9E 9F 00 01 9B CC 
01 03 9C 48 00 02 6A 4D 
01 03 9C 48 00 02 6A 4D 
01 03 9E 9F 00 01 9B CC 
01 03 9E 9F 00 01 9B CC 
01 10 9E 35 00 12 24 00 02 00 00 13 88 00 00 00 00 07 D0 00 00 00 00 00 01 00 00 00 01 00 01 13 88 00 00 00 00 13 88 00 00 00 00 36 90 
01 10 9E 35 00 12 24 00 02 00 00 13 88 00 00 00 00 07 D0 00 00 00 00 00 01 00 00 00 01 00 01 13 88 00 00 00 00 13 88 00 00 00 00 36 90 
01 06 9E 34 00 61 26 04 
01 06 9E 34 00 61 26 04 
01 03 9C 48 00 02 6A 4D 
01 03 9C 48 00 02 6A 4D 
01 03 9C 48 00 02 6A 4D 
01 03 9C 48 00 02 6A 4D 
01 06 9E 34 00 03 A7 ED 
01 06 9E 34 00 03 A7 ED 
01 06 9E 34 00 64 E6 07 
01 06 9E 34 00 64 E6 07 
01 03 9C 48 00 02 6A 4D 
01 03 9C 48 00 02 6A 4D 
01 10 9E 35 00 12 24 00 01 00 01 13 88 00 00 00 00 07 D0 00 00 00 00 00 01 00 00 00 02 00 00 13 88 00 00 00 00 07 D0 00 00 00 00 4F 09 
01 10 9E 35 00 12 24 00 01 00 01 13 88 00 00 00 00 07 D0 00 00 00 00 00 01 00 00 00 02 00 00 13 88 00 00 00 00 07 D0 00 00 00 00 4F 09 
01 03 9C 48 00 02 6A 4D 
01 03 9C 48 00 02 6A 4D 
01 03 9E 98 00 08 EA 0B 
01 03 9E 98 00 08 EA 0B 
01 06 9E 34 00 64 E6 07 
01 06 9E 34 00 64 E6 07 
01 10 9E 35 00 12 24 00 02 00 00 13 88 00 00 00 00 07 D0 00 00 00 00 00 01 00 00 00 01 00 01 13 88 00 00 00 00 13 88 00 00 00 00 36 90 
01 10 9E 35 00 12 24 00 02 00 00 13 88 00 00 00 00 07 D0 00 00 00 00 00 01 00 00 00 01 00 01 13 88 00 00 00 00 13 88 00 00 00 00 36 90 
01 03 9C 48 00 02 6A 4D 
01 03 9C 48 00 02 6A 4D 
01 03 9E 98 00 08 EA 0B 
01 03 9E 98 00 08 EA 0B 
01 03 9C 48 00 02 6A 4D 
01 03 9C 48 00 02 6A 4D 
01 03 9E 98 00 08 EA 0B 
01 03 9E 98 00 08 EA 0B 
01 10 9E 35 00 12 24 00 01 00 01 13 88 00 00 00 00 13 88 00 00 00 00 00 02 00 00 00 02 00 00 13 88 00 00 00 00 13 88 00 00 00 00 F0 5E 
01 10 9E 35 00 12 24 00 01 00 01 13 88 00 00 00 00 13 88 00 00 00 00 00 02 00 00 00 02 00 00 13 88 00 00 00 00 13 88 00 00 00 00 F0 5E 
01 06 9E 34 00 64 E6 07 
01 06 9E 34 00 64 E6 07 
01 03 9C 48 00 02 6A 4D 
01 03 9C 48 00 02 6A 4D 
01 03 9E 98 00 08 EA 0B 
01 03 9E 98 00 08 EA 0B






01 06 9C 48 28 3C 39 9D 
01 06 9C 48 28 3C 39 9D 
01 03 9C 48 00 02 6A 4D 
01 03 9C 48 00 02 6A 4D 
01 03 9E 9F 00 01 9B CC 
01 03 9E 9F 00 01 9B CC 
01 03 9C 48 00 02 6A 4D 
01 03 9C 48 00 02 6A 4D 
01 03 9E 9F 00 01 9B CC 
01 03 9E 9F 00 01 9B CC 
01 03 9C 48 00 02 6A 4D 
01 03 9C 48 00 02 6A 4D 
01 03 9E 9F 00 01 9B CC 
01 03 9E 9F 00 01 9B CC 
01 03 9C 48 00 02 6A 4D 
01 03 9C 48 00 02 6A 4D 
01 03 9E 9F 00 01 9B CC 
01 03 9E 9F 00 01 9B CC 
01 03 9C 48 00 02 6A 4D 
01 03 9C 48 00 02 6A 4D 
01 03 9E 9F 00 01 9B CC 
01 03 9E 9F 00 01 9B CC 
01 03 9C 48 00 02 6A 4D 
01 03 9C 48 00 02 6A 4D 
01 10 9E 35 00 12 24 00 02 00 00 13 88 00 00 00 00 07 D0 00 00 00 00 00 01 00 00 00 01 00 01 13 88 00 00 00 00 07 D0 00 00 00 00 14 49 
01 10 9E 35 00 12 24 00 02 00 00 13 88 00 00 00 00 07 D0 00 00 00 00 00 01 00 00 00 01 00 01 13 88 00 00 00 00 07 D0 00 00 00 00 14 49 
01 06 9E 34 00 61 26 04 
01 06 9E 34 00 61 26 04 
01 03 9C 48 00 02 6A 4D 
01 03 9C 48 00 02 6A 4D 
01 03 9C 48 00 02 6A 4D 
01 03 9C 48 00 02 6A 4D 
01 06 9E 34 00 03 A7 ED 
01 06 9E 34 00 03 A7 ED 
01 06 9E 34 00 64 E6 07 
01 06 9E 34 00 64 E6 07 
01 03 9C 48 00 02 6A 4D 
01 03 9C 48 00 02 6A 4D 
01 10 9E 35 00 12 24 00 01 00 01 13 88 00 00 00 00 07 D0 00 00 00 00 00 01 00 00 00 02 00 00 13 88 00 00 00 00 07 D0 00 00 00 00 4F 09 
01 10 9E 35 00 12 24 00 01 00 01 13 88 00 00 00 00 07 D0 00 00 00 00 00 01 00 00 00 02 00 00 13 88 00 00 00 00 07 D0 00 00 00 00 4F 09 
01 03 9C 48 00 02 6A 4D 
01 03 9C 48 00 02 6A 4D 
01 03 9E 98 00 08 EA 0B 
01 03 9E 98 00 08 EA 0B 
01 06 9E 34 00 64 E6 07 
01 06 9E 34 00 64 E6 07 



01 10 9E 35 00 12 24 00 02 00 00 13 88 00 00 00 00 07 D0 00 00 00 00 00 01 00 00 00 01 00 01 13 88 00 00 00 00 07 D0 00 00 00 00 14 49 
01 10 9E 35 00 12 24 00 02 00 00 13 88 00 00 00 00 07 D0 00 00 00 00 00 01 00 00 00 01 00 01 13 88 00 00 00 00 07 D0 00 00 00 00 14 49 
寄存器地址 9E 35 = 40501   写12个寄存器数据，从40501~40519，但是手册上只有40501~40505 的说明。后面的没有





01 10 9E 35 00 12 24 00 02 00 00 13 88 00 00 00 00 07 D0 00 00 00 00 00 01 00 00 00 01 00 01 13 88 00 00 00 00 27 10 00 00 00 01 D2 F8 
01 10 9E 35 00 12 24 00 02 00 00 13 88 00 00 00 00 07 D0 00 00 00 00 00 01 00 00 00 01 00 01 13 88 00 00 00 00 27 10 00 00 00 01 D2 F8 
01 06 9E 34 00 61 26 04 
01 06 9E 34 00 61 26 04 
01 03 9C 48 00 02 6A 4D 
01 03 9C 48 00 02 6A 4D 
01 03 9E 98 00 08 EA 0B 
01 03 9E 98 00 08 EA 0B 
01 06 9E 34 00 03 A7 ED 
01 06 9E 34 00 03 A7 ED 
01 06 9E 34 00 64 E6 07 
01 06 9E 34 00 64 E6 07 
01 03 9C 48 00 02 6A 4D 
01 03 9C 48 00 02 6A 4D 
01 10 9E 35 00 12 24 00 01 00 01 13 88 00 00 00 00 07 D0 00 00 00 00 00 01 00 00 00 02 00 00 13 88 00 00 00 00 07 D0 00 00 00 00 4F 09 
01 10 9E 35 00 12 24 00 01 00 01 13 88 00 00 00 00 07 D0 00 00 00 00 00 01 00 00 00 02 00 00 13 88 00 00 00 00 07 D0 00 00 00 00 4F 09 
01 03 9C 48 00 02 6A 4D 
01 03 9C 48 00 02 6A 4D 
01 03 9E 98 00 08 EA 0B 
01 03 9E 98 00 08 EA 0B 
01 03 9C 48 00 02 6A 4D 
01 03 9C 48 00 02 6A 4D 
01 10 9E 35 00 12 24 00 02 00 00 13 88 00 00 00 00 07 D0 00 00 00 00 00 01 00 00 00 01 00 01 13 88 00 00 00 00 27 10 00 00 00 01 D2 F8 
01 10 9E 35 00 12 24 00 02 00 00 13 88 00 00 00 00 07 D0 00 00 00 00 00 01 00 00 00 01 00 01 13 88 00 00 00 00 27 10 00 00 00 01 D2 F8 
01 03 9C 48 00 02 6A 4D 
01 03 9C 48 00 02 6A 4D 
01 03 9E 98 00 08 EA 0B 
01 03 9E 98 00 08 EA 0B 
01 06 9E 34 00 64 E6 07 
01 06 9E 34 00 64 E6 07 
01 03 9C 48 00 02 6A 4D 
01 03 9C 48 00 02 6A 4D 
01 03 9E 98 00 08 EA 0B 
01 03 9E 98 00 08 EA 0B 
01 03 9C 48 00 02 6A 4D 
01 03 9C 48 00 02 6A 4D 
01 03 9E 98 00 08 EA 0B